
T1350 000:048 SEGGER J-Link V6.12 Log File (0000ms, 0023ms total)
T1350 000:048 DLL Compiled: Nov 25 2016 18:08:26 (0000ms, 0023ms total)
T1350 000:048 Logging started @ 2021-05-09 14:10 (0000ms, 0023ms total)
T1350 000:048 JLINK_SetWarnOutHandler(...) (0000ms, 0023ms total)
T1350 000:048 JLINK_OpenEx(...)
Firmware: J-Link ARM-OB STM32 compiled Aug 22 2012 19:52:04
Hardware: V7.00
S/N: 20090928
Feature(s): RDI,FlashDL,FlashBP,JFlash,GDBFullWEBSRV Webserver running on local port 19080 (0011ms, 0034ms total)
T1350 000:048   returns O.K. (0011ms, 0034ms total)
T1350 000:059 JLINK_SetErrorOutHandler(...) (0000ms, 0034ms total)
T1350 000:059 JLINK_ExecCommand("ProjectFile = "E:\Source_Code\Github\DR_Control\New_DR_Base\MDK-ARM\JLinkSettings.ini"", ...). C:\Program Files (x86)\SEGGER\JLink_V612\JLinkDevices.xml evaluated successfully.  returns 0x00 (0081ms, 0115ms total)
T1350 000:140 JLINK_ExecCommand("Device = STM32F405RG", ...). Device "STM32F405RG" selected.  returns 0x00 (0001ms, 0116ms total)
T1350 000:141 JLINK_ExecCommand("DisableConnectionTimeout", ...).   returns 0x01 (0000ms, 0116ms total)
T1350 000:141 JLINK_GetHardwareVersion()  returns 0x11170 (0000ms, 0116ms total)
T1350 000:141 JLINK_GetDLLVersion()  returns 61200 (0000ms, 0116ms total)
T1350 000:141 JLINK_GetFirmwareString(...) (0000ms, 0116ms total)
T1350 000:141 JLINK_GetDLLVersion()  returns 61200 (0000ms, 0116ms total)
T1350 000:141 JLINK_GetCompileDateTime() (0000ms, 0116ms total)
T1350 000:141 JLINK_GetFirmwareString(...) (0000ms, 0116ms total)
T1350 000:141 JLINK_GetHardwareVersion()  returns 0x11170 (0000ms, 0116ms total)
T1350 000:142 JLINK_TIF_Select(JLINKARM_TIF_SWD)  returns 0x00 (0001ms, 0117ms total)
T1350 000:143 JLINK_SetSpeed(2000) (0001ms, 0118ms total)
T1350 000:144 JLINK_GetId() >0x108 TIF>Found SWD-DP with ID 0x2BA01477 >0x0D TIF> >0x28 TIF> >0x0D TIF> >0x28 TIF> >0x0D TIF> >0x28 TIF> >0x0D TIF> >0x28 TIF> >0x0D TIF> >0x21 TIF> >0x0D TIF> >0x28 TIF> >0x0D TIF> >0x28 TIF> >0x0D TIF> >0x28 TIF> >0x0D TIF> >0x21 TIF> >0x0D TIF> >0x21 TIF> >0x0D TIF> >0x28 TIF> >0x0D TIF> >0x21 TIF> >0x0D TIF> >0x21 TIF> >0x0D TIF> >0x28 TIF> >0x0D TIF> >0x21 TIF> >0x0D TIF> >0x21 TIF> >0x0D TIF> >0x28 TIF> >0x0D TIF> >0x21 TIF> >0x0D TIF> >0x21 TIF> >0x0D TIF>
 >0x28 TIF> >0x0D TIF> >0x21 TIF> >0x0D TIF> >0x21 TIF> >0x0D TIF> >0x28 TIF> >0x0D TIF> >0x21 TIF> >0x0D TIF> >0x21 TIF> >0x108 TIF>Found SWD-DP with ID 0x2BA01477 >0x0D TIF> >0x28 TIF> >0x0D TIF> >0x28 TIF> >0x0D TIF> >0x28 TIF> >0x0D TIF> >0x28 TIF> >0x0D TIF> >0x21 TIF> >0x0D TIF> >0x28 TIF> >0x0D TIF> >0x28 TIF> >0x0D TIF> >0x21 TIF> >0x0D TIF> >0x21 TIF> >0x0D TIF> >0x21 TIF>AP-IDR: 0x24770011, Type: AHB-AP >0x0D TIF> >0x28 TIF> >0x0D TIF> >0x28 TIF> >0x0D TIF> >0x28 TIF> >0x0D TIF> >0x21 TIF>
 >0x0D TIF> >0x21 TIF> >0x0D TIF> >0x28 TIF> >0x0D TIF> >0x21 TIF> >0x0D TIF> >0x21 TIF>Found Cortex-M4 r0p1, Little endian. -- CPU_ReadMem(4 bytes @ 0xE000EDF0) -- CPU_ReadMem(4 bytes @ 0xE0002000)FPUnit: 6 code (BP) slots and 2 literal slots -- CPU_ReadMem(4 bytes @ 0xE000EDFC) -- CPU_ReadMem(4 bytes @ 0xE0001000) -- CPU_WriteMem(4 bytes @ 0xE0001000) -- CPU_ReadMem(4 bytes @ 0xE000ED88) -- CPU_WriteMem(4 bytes @ 0xE000ED88) -- CPU_ReadMem(4 bytes @ 0xE000ED88) -- CPU_WriteMem(4 bytes @ 0xE000ED88)
CoreSight components:ROMTbl 0 @ E00FF000 -- CPU_ReadMem(16 bytes @ 0xE00FF000) -- CPU_ReadMem(16 bytes @ 0xE000EFF0) -- CPU_ReadMem(16 bytes @ 0xE000EFE0)ROMTbl 0 [0]: FFF0F000, CID: B105E00D, PID: 000BB00C SCS -- CPU_ReadMem(16 bytes @ 0xE0001FF0) -- CPU_ReadMem(16 bytes @ 0xE0001FE0)ROMTbl 0 [1]: FFF02000, CID: B105E00D, PID: 003BB002 DWT -- CPU_ReadMem(16 bytes @ 0xE0002FF0) -- CPU_ReadMem(16 bytes @ 0xE0002FE0)ROMTbl 0 [2]: FFF03000, CID: B105E00D, PID: 002BB003 FPB
 -- CPU_ReadMem(16 bytes @ 0xE0000FF0) -- CPU_ReadMem(16 bytes @ 0xE0000FE0)ROMTbl 0 [3]: FFF01000, CID: B105E00D, PID: 003BB001 ITM -- CPU_ReadMem(16 bytes @ 0xE00FF010) -- CPU_ReadMem(16 bytes @ 0xE0040FF0) -- CPU_ReadMem(16 bytes @ 0xE0040FE0)ROMTbl 0 [4]: FFF41000, CID: B105900D, PID: 000BB9A1 TPIU -- CPU_ReadMem(16 bytes @ 0xE0041FF0) -- CPU_ReadMem(16 bytes @ 0xE0041FE0)ROMTbl 0 [5]: FFF42000, CID: B105900D, PID: 000BB925 ETM >0x0D TIF> >0x21 TIF>  returns 0x2BA01477 (0070ms, 0188ms total)
T1350 000:214 JLINK_GetDeviceFamily()  returns 14 (0000ms, 0188ms total)
T1350 000:214 JLINK_ReadMem (0xE00FFFF0, 0x0010 Bytes, ...) -- CPU is running -- CPU_ReadMem(16 bytes @ 0xE00FFFF0) - Data: 0D 00 00 00 10 00 00 00 05 00 00 00 B1 00 00 00  returns 0x00 (0002ms, 0190ms total)
T1350 000:216 JLINK_ReadMem (0xE00FFFD0, 0x0020 Bytes, ...) -- CPU is running -- CPU_ReadMem(32 bytes @ 0xE00FFFD0) - Data: 00 00 00 00 00 00 00 00 00 00 00 00 00 00 00 00 ...  returns 0x00 (0000ms, 0190ms total)
T1350 000:216 JLINK_ReadMem (0xE00FF000, 0x0018 Bytes, ...) -- CPU is running -- CPU_ReadMem(24 bytes @ 0xE00FF000) - Data: 03 F0 F0 FF 03 20 F0 FF 03 30 F0 FF 03 10 F0 FF ...  returns 0x00 (0001ms, 0191ms total)
T1350 000:217 JLINK_ReadMemU32(0xE000ED00, 0x0001 Items, ...) -- CPU is running -- CPU_ReadMem(4 bytes @ 0xE000ED00) - Data: 41 C2 0F 41  returns 0x01 (0001ms, 0192ms total)
T1350 000:218 JLINK_ReadMemU32(0xE000EF40, 0x0001 Items, ...) -- CPU is running -- CPU_ReadMem(4 bytes @ 0xE000EF40) - Data: 21 00 11 10  returns 0x01 (0002ms, 0194ms total)
T1350 000:220 JLINK_ReadMemU32(0xE000EF44, 0x0001 Items, ...) -- CPU is running -- CPU_ReadMem(4 bytes @ 0xE000EF44) - Data: 11 00 00 11  returns 0x01 (0001ms, 0195ms total)
T1350 000:221 JLINK_SetResetType(JLINKARM_CM3_RESET_TYPE_NORMAL)  returns JLINKARM_CM3_RESET_TYPE_NORMAL (0000ms, 0195ms total)
T1350 000:221 JLINK_Reset() -- CPU is running -- CPU_WriteMem(4 bytes @ 0xE000EDF0) -- CPU is running -- CPU_WriteMem(4 bytes @ 0xE000EDFC) >0x35 TIF> -- CPU is running -- CPU_WriteMem(4 bytes @ 0xE000ED0C) -- CPU is running -- CPU_ReadMem(4 bytes @ 0xE000EDF0) -- CPU is running -- CPU_ReadMem(4 bytes @ 0xE000EDF0) -- CPU is running -- CPU_WriteMem(4 bytes @ 0xE000EDF0) -- CPU is running -- CPU_WriteMem(4 bytes @ 0xE000EDFC) -- CPU is running -- CPU_ReadMem(4 bytes @ 0xE000EDF0)
 -- CPU_WriteMem(4 bytes @ 0xE0002000) -- CPU_ReadMem(4 bytes @ 0xE000EDFC) -- CPU_ReadMem(4 bytes @ 0xE0001000) (0023ms, 0218ms total)
T1350 000:244 JLINK_ReadReg(R15 (PC))  returns 0x0800019C (0000ms, 0218ms total)
T1350 000:244 JLINK_ReadReg(XPSR)  returns 0x01000000 (0000ms, 0218ms total)
T1350 000:244 JLINK_Halt()  returns 0x00 (0000ms, 0218ms total)
T1350 000:244 JLINK_IsHalted()  returns TRUE (0000ms, 0218ms total)
T1350 000:244 JLINK_ReadMemU32(0xE000EDF0, 0x0001 Items, ...) -- CPU_ReadMem(4 bytes @ 0xE000EDF0) - Data: 03 00 03 00  returns 0x01 (0001ms, 0219ms total)
T1350 000:245 JLINK_WriteU32(0xE000EDF0, 0xA05F0003) -- CPU_WriteMem(4 bytes @ 0xE000EDF0)  returns 0x00 (0001ms, 0220ms total)
T1350 000:246 JLINK_WriteU32(0xE000EDFC, 0x01000000) -- CPU_WriteMem(4 bytes @ 0xE000EDFC)  returns 0x00 (0001ms, 0221ms total)
T1350 000:248 JLINK_GetHWStatus(...)  returns 0x00 (0001ms, 0222ms total)
T1350 000:250 JLINK_GetNumBPUnits(Type = 0xFFFFFF00)  returns 0x06 (0000ms, 0222ms total)
T1350 000:250 JLINK_GetNumBPUnits(Type = 0xF0)  returns 0x2000 (0000ms, 0222ms total)
T1350 000:250 JLINK_GetNumWPUnits()  returns 0x04 (0000ms, 0222ms total)
T1350 000:251 JLINK_GetSpeed()  returns 0x7D0 (0000ms, 0222ms total)
T1350 000:252 JLINK_ReadMemU32(0xE000E004, 0x0001 Items, ...) -- CPU_ReadMem(4 bytes @ 0xE000E004) - Data: 02 00 00 00  returns 0x01 (0001ms, 0223ms total)
T1350 000:253 JLINK_ReadMemU32(0xE000E004, 0x0001 Items, ...) -- CPU_ReadMem(4 bytes @ 0xE000E004) - Data: 02 00 00 00  returns 0x01 (0001ms, 0224ms total)
T1350 000:254 JLINK_WriteMem(0xE0001000, 0x001C Bytes, ...) - Data: 01 00 00 00 00 00 00 00 00 00 00 00 00 00 00 00 ... -- CPU_WriteMem(28 bytes @ 0xE0001000)  returns 0x1C (0001ms, 0225ms total)
T1350 000:255 JLINK_ReadMem (0xE0001000, 0x001C Bytes, ...) -- CPU_ReadMem(28 bytes @ 0xE0001000) - Data: 01 00 00 40 00 00 00 00 00 00 00 00 00 00 00 00 ...  returns 0x00 (0001ms, 0226ms total)
T1350 000:256 JLINK_ReadReg(R15 (PC))  returns 0x0800019C (0000ms, 0226ms total)
T1350 000:256 JLINK_ReadReg(XPSR)  returns 0x01000000 (0000ms, 0226ms total)
T1350 000:360 JLINK_SetResetType(JLINKARM_CM3_RESET_TYPE_NORMAL)  returns JLINKARM_CM3_RESET_TYPE_NORMAL (0000ms, 0226ms total)
T1350 000:360 JLINK_Reset() -- CPU_WriteMem(4 bytes @ 0xE000EDF0) -- CPU_WriteMem(4 bytes @ 0xE000EDFC) >0x35 TIF> -- CPU_WriteMem(4 bytes @ 0xE000ED0C) -- CPU_ReadMem(4 bytes @ 0xE000EDF0) -- CPU_ReadMem(4 bytes @ 0xE000EDF0) -- CPU_WriteMem(4 bytes @ 0xE000EDF0) -- CPU_WriteMem(4 bytes @ 0xE000EDFC) -- CPU is running -- CPU_ReadMem(4 bytes @ 0xE000EDF0) -- CPU_WriteMem(4 bytes @ 0xE0002000) -- CPU_ReadMem(4 bytes @ 0xE000EDFC) -- CPU_ReadMem(4 bytes @ 0xE0001000) (0024ms, 0250ms total)
T1350 000:384 JLINK_ReadReg(R15 (PC))  returns 0x0800019C (0000ms, 0250ms total)
T1350 000:384 JLINK_ReadReg(XPSR)  returns 0x01000000 (0000ms, 0250ms total)
T1350 000:385 JLINK_ReadMem (0x08000188, 0x003C Bytes, ...) -- CPU_ReadMem(128 bytes @ 0x08000180) -- Updating C cache (128 bytes @ 0x08000180) -- Read from C cache (60 bytes @ 0x08000188) - Data: DF F8 0C D0 00 F0 60 FB 00 48 00 47 25 5B 00 08 ...  returns 0x00 (0002ms, 0252ms total)
T1350 002:608 JLINK_ReadMem (0x20000000, 0x0004 Bytes, ...) -- CPU_ReadMem(64 bytes @ 0x20000000) -- Updating C cache (64 bytes @ 0x20000000) -- Read from C cache (4 bytes @ 0x20000000) - Data: 00 7A 03 0A  returns 0x00 (0001ms, 0253ms total)
T1350 002:615 JLINK_ReadMem (0x20000020, 0x0008 Bytes, ...) -- Read from C cache (8 bytes @ 0x20000020) - Data: 00 00 00 00 00 00 00 00  returns 0x00 (0000ms, 0253ms total)
T1350 002:632 JLINK_ReadMem (0x20000035, 0x0001 Bytes, ...) -- Read from C cache (1 bytes @ 0x20000035) - Data: 00  returns 0x00 (0000ms, 0253ms total)
T1350 002:639 JLINK_ReadMem (0x20000034, 0x0001 Bytes, ...) -- Read from C cache (1 bytes @ 0x20000034) - Data: 00  returns 0x00 (0000ms, 0253ms total)
T1350 002:655 JLINK_ReadMem (0x2000000C, 0x0002 Bytes, ...) -- Read from C cache (2 bytes @ 0x2000000C) - Data: 00 04  returns 0x00 (0000ms, 0253ms total)
T389C 002:694 JLINK_SetBPEx(Addr = 0x08005B24, Type = 0xFFFFFFF2)  returns 0x00000001 (0000ms, 0253ms total)
T389C 002:694 JLINK_SetBPEx(Addr = 0x08000DE0, Type = 0xFFFFFFF2)  returns 0x00000002 (0000ms, 0253ms total)
T389C 002:694 JLINK_Go() -- CPU_WriteMem(4 bytes @ 0xE0002000) -- CPU_WriteMem(4 bytes @ 0xE0002000) -- CPU_ReadMem(4 bytes @ 0xE0001000) -- CPU_WriteMem(4 bytes @ 0xE0002008) -- CPU_WriteMem(4 bytes @ 0xE000200C) -- CPU_WriteMem(4 bytes @ 0xE0002010) -- CPU_WriteMem(4 bytes @ 0xE0002014) -- CPU_WriteMem(4 bytes @ 0xE0002018) -- CPU_WriteMem(4 bytes @ 0xE000201C) -- CPU_WriteMem(4 bytes @ 0xE0001004) (0007ms, 0260ms total)
T389C 002:802 JLINK_IsHalted()  returns TRUE (0003ms, 0263ms total)
T389C 002:805 JLINK_Halt()  returns 0x00 (0000ms, 0260ms total)
T389C 002:805 JLINK_IsHalted()  returns TRUE (0000ms, 0260ms total)
T389C 002:805 JLINK_IsHalted()  returns TRUE (0000ms, 0260ms total)
T389C 002:805 JLINK_IsHalted()  returns TRUE (0000ms, 0260ms total)
T389C 002:805 JLINK_ReadReg(R15 (PC))  returns 0x08005B24 (0000ms, 0260ms total)
T389C 002:805 JLINK_ReadReg(XPSR)  returns 0x61000000 (0000ms, 0260ms total)
T389C 002:805 JLINK_ClrBPEx(BPHandle = 0x00000001)  returns 0x00 (0000ms, 0260ms total)
T389C 002:805 JLINK_ClrBPEx(BPHandle = 0x00000002)  returns 0x00 (0000ms, 0260ms total)
T389C 002:805 JLINK_ReadMemU32(0xE000ED30, 0x0001 Items, ...) -- CPU_ReadMem(4 bytes @ 0xE000ED30) - Data: 03 00 00 00  returns 0x01 (0001ms, 0261ms total)
T389C 002:806 JLINK_ReadMemU32(0xE0001028, 0x0001 Items, ...) -- CPU_ReadMem(4 bytes @ 0xE0001028) - Data: 00 00 00 00  returns 0x01 (0001ms, 0262ms total)
T389C 002:807 JLINK_ReadMemU32(0xE0001038, 0x0001 Items, ...) -- CPU_ReadMem(4 bytes @ 0xE0001038) - Data: 00 02 00 00  returns 0x01 (0000ms, 0262ms total)
T389C 002:807 JLINK_ReadMemU32(0xE0001048, 0x0001 Items, ...) -- CPU_ReadMem(4 bytes @ 0xE0001048) - Data: 00 00 00 00  returns 0x01 (0001ms, 0263ms total)
T389C 002:808 JLINK_ReadMemU32(0xE0001058, 0x0001 Items, ...) -- CPU_ReadMem(4 bytes @ 0xE0001058) - Data: 00 00 00 00  returns 0x01 (0001ms, 0264ms total)
T389C 002:809 JLINK_ReadReg(R0)  returns 0x08005B25 (0000ms, 0264ms total)
T389C 002:809 JLINK_ReadReg(R1)  returns 0x20000E80 (0000ms, 0264ms total)
T389C 002:809 JLINK_ReadReg(R2)  returns 0x00000000 (0000ms, 0264ms total)
T389C 002:809 JLINK_ReadReg(R3)  returns 0x08005AE1 (0000ms, 0264ms total)
T389C 002:809 JLINK_ReadReg(R4)  returns 0x08005D98 (0000ms, 0264ms total)
T389C 002:809 JLINK_ReadReg(R5)  returns 0x08005D98 (0000ms, 0264ms total)
T389C 002:809 JLINK_ReadReg(R6)  returns 0x00000000 (0000ms, 0264ms total)
T389C 002:809 JLINK_ReadReg(R7)  returns 0x00000000 (0000ms, 0264ms total)
T389C 002:809 JLINK_ReadReg(R8)  returns 0x00000000 (0000ms, 0264ms total)
T389C 002:809 JLINK_ReadReg(R9)  returns 0x00000000 (0000ms, 0264ms total)
T389C 002:809 JLINK_ReadReg(R10)  returns 0x00000000 (0000ms, 0264ms total)
T389C 002:809 JLINK_ReadReg(R11)  returns 0x00000000 (0000ms, 0264ms total)
T389C 002:809 JLINK_ReadReg(R12)  returns 0x00000000 (0000ms, 0264ms total)
T389C 002:809 JLINK_ReadReg(R13 (SP))  returns 0x20000E80 (0000ms, 0264ms total)
T389C 002:809 JLINK_ReadReg(R14)  returns 0x0800086D (0000ms, 0264ms total)
T389C 002:809 JLINK_ReadReg(R15 (PC))  returns 0x08005B24 (0000ms, 0264ms total)
T389C 002:809 JLINK_ReadReg(XPSR)  returns 0x61000000 (0000ms, 0264ms total)
T389C 002:809 JLINK_ReadReg(MSP)  returns 0x20000E80 (0000ms, 0264ms total)
T389C 002:809 JLINK_ReadReg(PSP)  returns 0x00000000 (0000ms, 0264ms total)
T389C 002:809 JLINK_ReadReg(CFBP)  returns 0x00000000 (0000ms, 0264ms total)
T389C 002:809 JLINK_ReadReg(FPSCR)  returns 0x00000000 (0006ms, 0270ms total)
T389C 002:815 JLINK_ReadReg(FPS0)  returns 0x00000000 (0000ms, 0270ms total)
T389C 002:815 JLINK_ReadReg(FPS1)  returns 0x00000000 (0000ms, 0270ms total)
T389C 002:815 JLINK_ReadReg(FPS2)  returns 0x00000000 (0000ms, 0270ms total)
T389C 002:815 JLINK_ReadReg(FPS3)  returns 0x00000000 (0000ms, 0270ms total)
T389C 002:815 JLINK_ReadReg(FPS4)  returns 0x00000000 (0000ms, 0270ms total)
T389C 002:815 JLINK_ReadReg(FPS5)  returns 0x00000000 (0000ms, 0270ms total)
T389C 002:815 JLINK_ReadReg(FPS6)  returns 0x00000000 (0000ms, 0270ms total)
T389C 002:815 JLINK_ReadReg(FPS7)  returns 0x00000000 (0000ms, 0270ms total)
T389C 002:815 JLINK_ReadReg(FPS8)  returns 0x00000000 (0000ms, 0270ms total)
T389C 002:815 JLINK_ReadReg(FPS9)  returns 0x00000000 (0000ms, 0270ms total)
T389C 002:815 JLINK_ReadReg(FPS10)  returns 0x00000000 (0000ms, 0270ms total)
T389C 002:815 JLINK_ReadReg(FPS11)  returns 0x00000000 (0000ms, 0270ms total)
T389C 002:815 JLINK_ReadReg(FPS12)  returns 0x00000000 (0000ms, 0270ms total)
T389C 002:815 JLINK_ReadReg(FPS13)  returns 0x00000000 (0000ms, 0270ms total)
T389C 002:815 JLINK_ReadReg(FPS14)  returns 0x00000000 (0000ms, 0270ms total)
T389C 002:815 JLINK_ReadReg(FPS15)  returns 0x00000000 (0000ms, 0270ms total)
T389C 002:815 JLINK_ReadReg(FPS16)  returns 0x00000000 (0000ms, 0270ms total)
T389C 002:815 JLINK_ReadReg(FPS17)  returns 0x00000000 (0000ms, 0270ms total)
T389C 002:815 JLINK_ReadReg(FPS18)  returns 0x00000000 (0000ms, 0270ms total)
T389C 002:815 JLINK_ReadReg(FPS19)  returns 0x00000000 (0000ms, 0270ms total)
T389C 002:815 JLINK_ReadReg(FPS20)  returns 0x00000000 (0000ms, 0270ms total)
T389C 002:815 JLINK_ReadReg(FPS31)  returns 0x00000000 (0000ms, 0270ms total)
T389C 002:815 JLINK_ReadReg(FPS7)  returns 0x00000000 (0000ms, 0270ms total)
T389C 002:815 JLINK_ReadReg(FPS8)  returns 0x00000000 (0000ms, 0270ms total)
T389C 002:815 JLINK_ReadReg(FPS9)  returns 0x00000000 (0000ms, 0270ms total)
T389C 002:815 JLINK_ReadReg(FPS10)  returns 0x00000000 (0000ms, 0270ms total)
T389C 002:815 JLINK_ReadReg(FPS11)  returns 0x00000000 (0000ms, 0270ms total)
T389C 002:815 JLINK_ReadReg(FPS12)  returns 0x00000000 (0000ms, 0270ms total)
T389C 002:815 JLINK_ReadReg(FPS13)  returns 0x00000000 (0000ms, 0270ms total)
T389C 002:815 JLINK_ReadReg(FPS14)  returns 0x00000000 (0000ms, 0270ms total)
T389C 002:815 JLINK_ReadReg(FPS15)  returns 0x00000000 (0000ms, 0270ms total)
T389C 002:815 JLINK_ReadReg(FPS16)  returns 0x00000000 (0000ms, 0270ms total)
T1350 002:816 JLINK_ReadMem (0x20000000, 0x0004 Bytes, ...) -- CPU_ReadMem(64 bytes @ 0x20000000) -- Updating C cache (64 bytes @ 0x20000000) -- Read from C cache (4 bytes @ 0x20000000) - Data: 00 00 00 00  returns 0x00 (0002ms, 0272ms total)
T1350 002:818 JLINK_ReadMem (0x20000020, 0x0008 Bytes, ...) -- Read from C cache (8 bytes @ 0x20000020) - Data: 00 00 00 00 00 00 00 00  returns 0x00 (0000ms, 0272ms total)
T1350 002:818 JLINK_ReadMem (0x20000035, 0x0001 Bytes, ...) -- Read from C cache (1 bytes @ 0x20000035) - Data: 00  returns 0x00 (0000ms, 0272ms total)
T1350 002:818 JLINK_ReadMem (0x20000034, 0x0001 Bytes, ...) -- Read from C cache (1 bytes @ 0x20000034) - Data: 00  returns 0x00 (0000ms, 0272ms total)
T1350 002:819 JLINK_ReadMem (0x2000000C, 0x0002 Bytes, ...) -- Read from C cache (2 bytes @ 0x2000000C) - Data: 00 04  returns 0x00 (0000ms, 0273ms total)
T1350 002:821 JLINK_ReadMem (0x08005A24, 0x003C Bytes, ...) -- CPU_ReadMem(128 bytes @ 0x08005A00) -- Updating C cache (128 bytes @ 0x08005A00) -- Read from C cache (60 bytes @ 0x08005A24) - Data: 53 EC 11 2B FA F7 0D FC 53 EC 18 2B FA F7 B0 FC ...  returns 0x00 (0002ms, 0275ms total)
T1350 002:823 JLINK_ReadMem (0x08005A60, 0x003C Bytes, ...) -- CPU_ReadMem(64 bytes @ 0x08005A80) -- Updating C cache (64 bytes @ 0x08005A80) -- Read from C cache (60 bytes @ 0x08005A60) - Data: FA F7 98 FC 94 ED 04 0B 53 EC 10 2B FA F7 EB FB ...  returns 0x00 (0002ms, 0277ms total)
T1350 002:825 JLINK_ReadMem (0x08005A9C, 0x003C Bytes, ...) -- CPU_ReadMem(64 bytes @ 0x08005AC0) -- Updating C cache (64 bytes @ 0x08005AC0) -- Read from C cache (60 bytes @ 0x08005A9C) - Data: FA F7 D3 FB BD EC 02 8B 41 EC 10 0B 70 BD 00 00 ...  returns 0x00 (0001ms, 0278ms total)
T1350 002:826 JLINK_ReadMem (0x08005AD8, 0x003C Bytes, ...) -- CPU_ReadMem(64 bytes @ 0x08005B00) -- Updating C cache (64 bytes @ 0x08005B00) -- Read from C cache (60 bytes @ 0x08005AD8) - Data: 00 2A FA D1 70 47 70 47 00 20 01 E0 01 C1 12 1F ...  returns 0x00 (0001ms, 0279ms total)
T1350 002:827 JLINK_ReadMem (0x08005B14, 0x003C Bytes, ...) -- CPU_ReadMem(64 bytes @ 0x08005B40) -- Updating C cache (64 bytes @ 0x08005B40) -- Read from C cache (60 bytes @ 0x08005B14) - Data: 00 40 01 90 9D ED 00 0B 02 B0 51 EC 10 0B 70 47 ...  returns 0x00 (0002ms, 0281ms total)
T1350 002:841 JLINK_ReadMem (0x08000DE0, 0x003C Bytes, ...) -- CPU_ReadMem(128 bytes @ 0x08000DC0) -- Updating C cache (128 bytes @ 0x08000DC0) -- Read from C cache (60 bytes @ 0x08000DE0) - Data: 70 47 70 47 00 B5 02 46 00 20 50 80 00 21 10 46 ...  returns 0x00 (0003ms, 0284ms total)
T389C 013:879 JLINK_SetBPEx(Addr = 0x08000DE0, Type = 0xFFFFFFF2)  returns 0x00000003 (0000ms, 0284ms total)
T389C 013:879 JLINK_Go() -- CPU_WriteMem(4 bytes @ 0xE0002000) -- CPU_ReadMem(4 bytes @ 0xE0001000) -- CPU_WriteMem(4 bytes @ 0xE0002008) -- CPU_WriteMem(4 bytes @ 0xE000200C) (0004ms, 0288ms total)
T389C 013:984 JLINK_IsHalted()  returns TRUE (0004ms, 0292ms total)
T389C 013:988 JLINK_Halt()  returns 0x00 (0000ms, 0288ms total)
T389C 013:988 JLINK_IsHalted()  returns TRUE (0000ms, 0288ms total)
T389C 013:988 JLINK_IsHalted()  returns TRUE (0000ms, 0288ms total)
T389C 013:988 JLINK_IsHalted()  returns TRUE (0000ms, 0288ms total)
T389C 013:988 JLINK_ReadReg(R15 (PC))  returns 0x08000DE0 (0000ms, 0288ms total)
T389C 013:988 JLINK_ReadReg(XPSR)  returns 0x2100002C (0000ms, 0288ms total)
T389C 013:988 JLINK_ClrBPEx(BPHandle = 0x00000003)  returns 0x00 (0000ms, 0288ms total)
T389C 013:988 JLINK_ReadMemU32(0xE000ED30, 0x0001 Items, ...) -- CPU_ReadMem(4 bytes @ 0xE000ED30) - Data: 03 00 00 00  returns 0x01 (0001ms, 0289ms total)
T389C 013:989 JLINK_ReadMemU32(0xE0001028, 0x0001 Items, ...) -- CPU_ReadMem(4 bytes @ 0xE0001028) - Data: 00 00 00 00  returns 0x01 (0001ms, 0290ms total)
T389C 013:990 JLINK_ReadMemU32(0xE0001038, 0x0001 Items, ...) -- CPU_ReadMem(4 bytes @ 0xE0001038) - Data: 00 02 00 00  returns 0x01 (0001ms, 0291ms total)
T389C 013:991 JLINK_ReadMemU32(0xE0001048, 0x0001 Items, ...) -- CPU_ReadMem(4 bytes @ 0xE0001048) - Data: 00 00 00 00  returns 0x01 (0001ms, 0292ms total)
T389C 013:992 JLINK_ReadMemU32(0xE0001058, 0x0001 Items, ...) -- CPU_ReadMem(4 bytes @ 0xE0001058) - Data: 00 00 00 00  returns 0x01 (0000ms, 0292ms total)
T389C 013:993 JLINK_ReadReg(R0)  returns 0x00000001 (0000ms, 0293ms total)
T389C 013:993 JLINK_ReadReg(R1)  returns 0x20000DD4 (0000ms, 0293ms total)
T389C 013:993 JLINK_ReadReg(R2)  returns 0x20000805 (0000ms, 0293ms total)
T389C 013:993 JLINK_ReadReg(R3)  returns 0x82000000 (0000ms, 0293ms total)
T389C 013:993 JLINK_ReadReg(R4)  returns 0x20000805 (0000ms, 0293ms total)
T389C 013:993 JLINK_ReadReg(R5)  returns 0x20000088 (0000ms, 0293ms total)
T389C 013:993 JLINK_ReadReg(R6)  returns 0x00000000 (0000ms, 0293ms total)
T389C 013:993 JLINK_ReadReg(R7)  returns 0x00000000 (0000ms, 0293ms total)
T389C 013:993 JLINK_ReadReg(R8)  returns 0x00000000 (0000ms, 0293ms total)
T389C 013:993 JLINK_ReadReg(R9)  returns 0x00000000 (0000ms, 0293ms total)
T389C 013:993 JLINK_ReadReg(R10)  returns 0x00000000 (0000ms, 0293ms total)
T389C 013:993 JLINK_ReadReg(R11)  returns 0x00000000 (0000ms, 0293ms total)
T389C 013:993 JLINK_ReadReg(R12)  returns 0x11800000 (0000ms, 0293ms total)
T389C 013:993 JLINK_ReadReg(R13 (SP))  returns 0x20000DD0 (0000ms, 0293ms total)
T389C 013:993 JLINK_ReadReg(R14)  returns 0x080045B3 (0000ms, 0293ms total)
T389C 013:993 JLINK_ReadReg(R15 (PC))  returns 0x08000DE0 (0000ms, 0293ms total)
T389C 013:993 JLINK_ReadReg(XPSR)  returns 0x2100002C (0000ms, 0293ms total)
T389C 013:993 JLINK_ReadReg(MSP)  returns 0x20000DD0 (0000ms, 0293ms total)
T389C 013:993 JLINK_ReadReg(PSP)  returns 0x00000000 (0000ms, 0293ms total)
T389C 013:993 JLINK_ReadReg(CFBP)  returns 0x04000000 (0000ms, 0293ms total)
T389C 013:993 JLINK_ReadReg(FPSCR)  returns 0x60000000 (0006ms, 0299ms total)
T389C 013:999 JLINK_ReadReg(FPS0)  returns 0x00000000 (0000ms, 0299ms total)
T389C 013:999 JLINK_ReadReg(FPS1)  returns 0x00000000 (0000ms, 0299ms total)
T389C 013:999 JLINK_ReadReg(FPS2)  returns 0x00000000 (0000ms, 0299ms total)
T389C 013:999 JLINK_ReadReg(FPS3)  returns 0x00000000 (0000ms, 0299ms total)
T389C 013:999 JLINK_ReadReg(FPS4)  returns 0x00000000 (0000ms, 0299ms total)
T389C 013:999 JLINK_ReadReg(FPS5)  returns 0x00000000 (0000ms, 0299ms total)
T389C 013:999 JLINK_ReadReg(FPS6)  returns 0x00000000 (0000ms, 0299ms total)
T389C 013:999 JLINK_ReadReg(FPS7)  returns 0x00000000 (0000ms, 0299ms total)
T389C 013:999 JLINK_ReadReg(FPS8)  returns 0x00000000 (0000ms, 0299ms total)
T389C 013:999 JLINK_ReadReg(FPS9)  returns 0x00000000 (0000ms, 0299ms total)
T389C 013:999 JLINK_ReadReg(FPS10)  returns 0x00000000 (0000ms, 0299ms total)
T389C 013:999 JLINK_ReadReg(FPS11)  returns 0x00000000 (0000ms, 0299ms total)
T389C 013:999 JLINK_ReadReg(FPS12)  returns 0x00000000 (0000ms, 0299ms total)
T389C 013:999 JLINK_ReadReg(FPS13)  returns 0x00000000 (0000ms, 0299ms total)
T389C 013:999 JLINK_ReadReg(FPS14)  returns 0x00000000 (0000ms, 0299ms total)
T389C 013:999 JLINK_ReadReg(FPS15)  returns 0x00000000 (0000ms, 0299ms total)
T389C 013:999 JLINK_ReadReg(FPS16)  returns 0x00000000 (0000ms, 0299ms total)
T389C 013:999 JLINK_ReadReg(FPS17)  returns 0x00000000 (0000ms, 0299ms total)
T389C 013:999 JLINK_ReadReg(FPS18)  returns 0x00000000 (0000ms, 0299ms total)
T389C 013:999 JLINK_ReadReg(FPS19)  returns 0x00000000 (0000ms, 0299ms total)
T389C 013:999 JLINK_ReadReg(FPS20)  returns 0x00000000 (0000ms, 0299ms total)
T389C 013:999 JLINK_ReadReg(FPS31)  returns 0x00000000 (0000ms, 0299ms total)
T389C 013:999 JLINK_ReadReg(FPS7)  returns 0x00000000 (0000ms, 0299ms total)
T389C 013:999 JLINK_ReadReg(FPS8)  returns 0x00000000 (0000ms, 0299ms total)
T389C 013:999 JLINK_ReadReg(FPS9)  returns 0x00000000 (0000ms, 0299ms total)
T389C 013:999 JLINK_ReadReg(FPS10)  returns 0x00000000 (0000ms, 0299ms total)
T389C 013:999 JLINK_ReadReg(FPS11)  returns 0x00000000 (0000ms, 0299ms total)
T389C 013:999 JLINK_ReadReg(FPS12)  returns 0x00000000 (0001ms, 0300ms total)
T389C 014:000 JLINK_ReadReg(FPS13)  returns 0x00000000 (0000ms, 0300ms total)
T389C 014:000 JLINK_ReadReg(FPS14)  returns 0x00000000 (0000ms, 0300ms total)
T389C 014:000 JLINK_ReadReg(FPS15)  returns 0x00000000 (0000ms, 0300ms total)
T389C 014:000 JLINK_ReadReg(FPS16)  returns 0x00000000 (0000ms, 0300ms total)
T1350 014:000 JLINK_ReadMem (0x20000DF4, 0x0004 Bytes, ...) -- CPU_ReadMem(64 bytes @ 0x20000DC0) -- Updating C cache (64 bytes @ 0x20000DC0) -- Read from C cache (4 bytes @ 0x20000DF4) - Data: 11 44 00 08  returns 0x00 (0001ms, 0301ms total)
T1350 014:002 JLINK_ReadMem (0x20000DEC, 0x0004 Bytes, ...) -- Read from C cache (4 bytes @ 0x20000DEC) - Data: 03 00 00 00  returns 0x00 (0000ms, 0301ms total)
T1350 014:002 JLINK_ReadMem (0x20000DF0, 0x0004 Bytes, ...) -- Read from C cache (4 bytes @ 0x20000DF0) - Data: 60 07 00 20  returns 0x00 (0000ms, 0301ms total)
T1350 014:002 JLINK_ReadMem (0x20000E04, 0x0004 Bytes, ...) -- CPU_ReadMem(64 bytes @ 0x20000E00) -- Updating C cache (64 bytes @ 0x20000E00) -- Read from C cache (4 bytes @ 0x20000E04) - Data: 17 0C 00 08  returns 0x00 (0001ms, 0302ms total)
T1350 014:003 JLINK_ReadMem (0x20000DF8, 0x0004 Bytes, ...) -- Read from C cache (4 bytes @ 0x20000DF8) - Data: 98 5D 00 08  returns 0x00 (0000ms, 0302ms total)
T1350 014:003 JLINK_ReadMem (0x20000DFC, 0x0004 Bytes, ...) -- Read from C cache (4 bytes @ 0x20000DFC) - Data: 98 5D 00 08  returns 0x00 (0000ms, 0302ms total)
T1350 014:003 JLINK_ReadMem (0x20000E00, 0x0004 Bytes, ...) -- Read from C cache (4 bytes @ 0x20000E00) - Data: 00 00 00 00  returns 0x00 (0000ms, 0302ms total)
T1350 014:003 JLINK_ReadMem (0x20000E0C, 0x0004 Bytes, ...) -- Read from C cache (4 bytes @ 0x20000E0C) - Data: 31 47 00 08  returns 0x00 (0000ms, 0302ms total)
T1350 014:003 JLINK_ReadMem (0x20000E08, 0x0004 Bytes, ...) -- Read from C cache (4 bytes @ 0x20000E08) - Data: 98 5D 00 08  returns 0x00 (0000ms, 0302ms total)
T1350 014:003 JLINK_ReadMem (0x20000E14, 0x0004 Bytes, ...) -- Read from C cache (4 bytes @ 0x20000E14) - Data: E9 FF FF FF  returns 0x00 (0000ms, 0302ms total)
T1350 014:003 JLINK_ReadMem (0x20000E30, 0x0004 Bytes, ...) -- Read from C cache (4 bytes @ 0x20000E30) - Data: 78 5B 00 08  returns 0x00 (0000ms, 0302ms total)
T1350 014:003 JLINK_ReadMem (0x20000E34, 0x0004 Bytes, ...) -- Read from C cache (4 bytes @ 0x20000E34) - Data: 00 00 00 01  returns 0x00 (0000ms, 0302ms total)
T1350 014:003 JLINK_ReadMem (0x20000E2C, 0x0004 Bytes, ...) -- Read from C cache (4 bytes @ 0x20000E2C) - Data: C3 0A 00 08  returns 0x00 (0000ms, 0302ms total)
T1350 014:003 JLINK_ReadMem (0xE000ED28, 0x0004 Bytes, ...) -- CPU_ReadMem(4 bytes @ 0xE000ED28) - Data: 00 00 00 00  returns 0x00 (0002ms, 0304ms total)
T1350 014:005 JLINK_ReadMem (0x20000E7C, 0x0004 Bytes, ...) -- CPU_ReadMem(64 bytes @ 0x20000E40) -- Updating C cache (64 bytes @ 0x20000E40) -- Read from C cache (4 bytes @ 0x20000E7C) - Data: 77 5B 00 08  returns 0x00 (0001ms, 0305ms total)
T1350 014:006 JLINK_ReadMem (0x20000E80, 0x0004 Bytes, ...) -- CPU_ReadMem(64 bytes @ 0x20000E80) -- Updating C cache (64 bytes @ 0x20000E80) -- Read from C cache (4 bytes @ 0x20000E80) - Data: 00 00 00 00  returns 0x00 (0002ms, 0307ms total)
T1350 014:012 JLINK_ReadMem (0x20000000, 0x0004 Bytes, ...) -- CPU_ReadMem(64 bytes @ 0x20000000) -- Updating C cache (64 bytes @ 0x20000000) -- Read from C cache (4 bytes @ 0x20000000) - Data: 00 7A 03 0A  returns 0x00 (0001ms, 0308ms total)
T1350 014:013 JLINK_ReadMem (0x20000020, 0x0008 Bytes, ...) -- Read from C cache (8 bytes @ 0x20000020) - Data: 00 00 00 00 00 00 00 00  returns 0x00 (0001ms, 0309ms total)
T1350 014:014 JLINK_ReadMem (0x20000035, 0x0001 Bytes, ...) -- Read from C cache (1 bytes @ 0x20000035) - Data: 00  returns 0x00 (0000ms, 0309ms total)
T1350 014:014 JLINK_ReadMem (0x20000034, 0x0001 Bytes, ...) -- Read from C cache (1 bytes @ 0x20000034) - Data: 00  returns 0x00 (0000ms, 0309ms total)
T1350 014:014 JLINK_ReadMem (0x2000000C, 0x0002 Bytes, ...) -- Read from C cache (2 bytes @ 0x2000000C) - Data: 00 04  returns 0x00 (0000ms, 0309ms total)
T389C 015:662 JLINK_ReadMem (0x08000DE0, 0x003C Bytes, ...) -- CPU_ReadMem(128 bytes @ 0x08000DC0) -- Updating C cache (128 bytes @ 0x08000DC0) -- Read from C cache (60 bytes @ 0x08000DE0) - Data: 70 47 70 47 00 B5 02 46 00 20 50 80 00 21 10 46 ...  returns 0x00 (0002ms, 0311ms total)
T389C 015:664 JLINK_Step() -- Read from C cache (2 bytes @ 0x08000DE0) -- CPU_ReadMem(4 bytes @ 0xE000ED18) -- CPU_WriteMem(4 bytes @ 0xE000ED18) -- CPU_ReadMem(4 bytes @ 0xE000ED18) -- CPU_WriteMem(4 bytes @ 0xE000ED18) -- CPU_ReadMem(4 bytes @ 0xE0001004) -- Not simulated -- CPU_WriteMem(4 bytes @ 0xE0002008)  returns 0x00 (0010ms, 0321ms total)
T389C 015:674 JLINK_ReadReg(R15 (PC))  returns 0x080045B2 (0000ms, 0321ms total)
T389C 015:674 JLINK_ReadReg(XPSR)  returns 0x2100002C (0000ms, 0321ms total)
T389C 015:674 JLINK_ReadReg(R0)  returns 0x00000001 (0000ms, 0321ms total)
T389C 015:674 JLINK_ReadReg(R1)  returns 0x20000DD4 (0000ms, 0321ms total)
T389C 015:674 JLINK_ReadReg(R2)  returns 0x20000805 (0000ms, 0321ms total)
T389C 015:674 JLINK_ReadReg(R3)  returns 0x82000000 (0000ms, 0321ms total)
T389C 015:674 JLINK_ReadReg(R4)  returns 0x20000805 (0000ms, 0321ms total)
T389C 015:674 JLINK_ReadReg(R5)  returns 0x20000088 (0000ms, 0321ms total)
T389C 015:674 JLINK_ReadReg(R6)  returns 0x00000000 (0000ms, 0321ms total)
T389C 015:674 JLINK_ReadReg(R7)  returns 0x00000000 (0000ms, 0321ms total)
T389C 015:674 JLINK_ReadReg(R8)  returns 0x00000000 (0000ms, 0321ms total)
T389C 015:674 JLINK_ReadReg(R9)  returns 0x00000000 (0000ms, 0321ms total)
T389C 015:674 JLINK_ReadReg(R10)  returns 0x00000000 (0000ms, 0321ms total)
T389C 015:674 JLINK_ReadReg(R11)  returns 0x00000000 (0000ms, 0321ms total)
T389C 015:674 JLINK_ReadReg(R12)  returns 0x11800000 (0000ms, 0321ms total)
T389C 015:674 JLINK_ReadReg(R13 (SP))  returns 0x20000DD0 (0000ms, 0321ms total)
T389C 015:674 JLINK_ReadReg(R14)  returns 0x080045B3 (0000ms, 0321ms total)
T389C 015:674 JLINK_ReadReg(R15 (PC))  returns 0x080045B2 (0000ms, 0321ms total)
T389C 015:674 JLINK_ReadReg(XPSR)  returns 0x2100002C (0000ms, 0321ms total)
T389C 015:674 JLINK_ReadReg(MSP)  returns 0x20000DD0 (0000ms, 0321ms total)
T389C 015:674 JLINK_ReadReg(PSP)  returns 0x00000000 (0000ms, 0321ms total)
T389C 015:674 JLINK_ReadReg(CFBP)  returns 0x04000000 (0000ms, 0321ms total)
T389C 015:674 JLINK_ReadReg(FPSCR)  returns 0x60000000 (0006ms, 0327ms total)
T389C 015:680 JLINK_ReadReg(FPS0)  returns 0x00000000 (0000ms, 0327ms total)
T389C 015:680 JLINK_ReadReg(FPS1)  returns 0x00000000 (0000ms, 0327ms total)
T389C 015:680 JLINK_ReadReg(FPS2)  returns 0x00000000 (0000ms, 0327ms total)
T389C 015:680 JLINK_ReadReg(FPS3)  returns 0x00000000 (0000ms, 0327ms total)
T389C 015:680 JLINK_ReadReg(FPS4)  returns 0x00000000 (0000ms, 0327ms total)
T389C 015:680 JLINK_ReadReg(FPS5)  returns 0x00000000 (0000ms, 0327ms total)
T389C 015:680 JLINK_ReadReg(FPS6)  returns 0x00000000 (0000ms, 0327ms total)
T389C 015:680 JLINK_ReadReg(FPS7)  returns 0x00000000 (0000ms, 0327ms total)
T389C 015:680 JLINK_ReadReg(FPS8)  returns 0x00000000 (0000ms, 0327ms total)
T389C 015:680 JLINK_ReadReg(FPS9)  returns 0x00000000 (0000ms, 0327ms total)
T389C 015:680 JLINK_ReadReg(FPS10)  returns 0x00000000 (0000ms, 0327ms total)
T389C 015:680 JLINK_ReadReg(FPS11)  returns 0x00000000 (0000ms, 0327ms total)
T389C 015:680 JLINK_ReadReg(FPS12)  returns 0x00000000 (0000ms, 0327ms total)
T389C 015:680 JLINK_ReadReg(FPS13)  returns 0x00000000 (0000ms, 0327ms total)
T389C 015:680 JLINK_ReadReg(FPS14)  returns 0x00000000 (0000ms, 0327ms total)
T389C 015:680 JLINK_ReadReg(FPS15)  returns 0x00000000 (0000ms, 0327ms total)
T389C 015:680 JLINK_ReadReg(FPS16)  returns 0x00000000 (0000ms, 0327ms total)
T389C 015:680 JLINK_ReadReg(FPS17)  returns 0x00000000 (0000ms, 0327ms total)
T389C 015:680 JLINK_ReadReg(FPS18)  returns 0x00000000 (0000ms, 0327ms total)
T389C 015:680 JLINK_ReadReg(FPS19)  returns 0x00000000 (0000ms, 0327ms total)
T389C 015:680 JLINK_ReadReg(FPS20)  returns 0x00000000 (0000ms, 0327ms total)
T389C 015:680 JLINK_ReadReg(FPS31)  returns 0x00000000 (0000ms, 0327ms total)
T389C 015:680 JLINK_ReadReg(FPS7)  returns 0x00000000 (0000ms, 0327ms total)
T389C 015:680 JLINK_ReadReg(FPS8)  returns 0x00000000 (0000ms, 0327ms total)
T389C 015:680 JLINK_ReadReg(FPS9)  returns 0x00000000 (0000ms, 0327ms total)
T389C 015:680 JLINK_ReadReg(FPS10)  returns 0x00000000 (0000ms, 0327ms total)
T389C 015:680 JLINK_ReadReg(FPS11)  returns 0x00000000 (0000ms, 0327ms total)
T389C 015:680 JLINK_ReadReg(FPS12)  returns 0x00000000 (0000ms, 0327ms total)
T389C 015:680 JLINK_ReadReg(FPS13)  returns 0x00000000 (0000ms, 0327ms total)
T389C 015:680 JLINK_ReadReg(FPS14)  returns 0x00000000 (0000ms, 0327ms total)
T389C 015:680 JLINK_ReadReg(FPS15)  returns 0x00000000 (0000ms, 0327ms total)
T389C 015:680 JLINK_ReadReg(FPS16)  returns 0x00000000 (0000ms, 0327ms total)
T1350 015:681 JLINK_ReadMem (0x20000DF4, 0x0004 Bytes, ...) -- CPU_ReadMem(64 bytes @ 0x20000DC0) -- Updating C cache (64 bytes @ 0x20000DC0) -- Read from C cache (4 bytes @ 0x20000DF4) - Data: 11 44 00 08  returns 0x00 (0001ms, 0328ms total)
T1350 015:682 JLINK_ReadMem (0x20000DEC, 0x0004 Bytes, ...) -- Read from C cache (4 bytes @ 0x20000DEC) - Data: 03 00 00 00  returns 0x00 (0000ms, 0328ms total)
T1350 015:682 JLINK_ReadMem (0x20000DF0, 0x0004 Bytes, ...) -- Read from C cache (4 bytes @ 0x20000DF0) - Data: 60 07 00 20  returns 0x00 (0000ms, 0328ms total)
T1350 015:682 JLINK_ReadMem (0x20000E04, 0x0004 Bytes, ...) -- CPU_ReadMem(64 bytes @ 0x20000E00) -- Updating C cache (64 bytes @ 0x20000E00) -- Read from C cache (4 bytes @ 0x20000E04) - Data: 17 0C 00 08  returns 0x00 (0002ms, 0330ms total)
T1350 015:684 JLINK_ReadMem (0x20000DF8, 0x0004 Bytes, ...) -- Read from C cache (4 bytes @ 0x20000DF8) - Data: 98 5D 00 08  returns 0x00 (0000ms, 0330ms total)
T1350 015:684 JLINK_ReadMem (0x20000DFC, 0x0004 Bytes, ...) -- Read from C cache (4 bytes @ 0x20000DFC) - Data: 98 5D 00 08  returns 0x00 (0000ms, 0330ms total)
T1350 015:684 JLINK_ReadMem (0x20000E00, 0x0004 Bytes, ...) -- Read from C cache (4 bytes @ 0x20000E00) - Data: 00 00 00 00  returns 0x00 (0000ms, 0330ms total)
T1350 015:684 JLINK_ReadMem (0x20000E0C, 0x0004 Bytes, ...) -- Read from C cache (4 bytes @ 0x20000E0C) - Data: 31 47 00 08  returns 0x00 (0000ms, 0330ms total)
T1350 015:684 JLINK_ReadMem (0x20000E08, 0x0004 Bytes, ...) -- Read from C cache (4 bytes @ 0x20000E08) - Data: 98 5D 00 08  returns 0x00 (0000ms, 0330ms total)
T1350 015:684 JLINK_ReadMem (0x20000E14, 0x0004 Bytes, ...) -- Read from C cache (4 bytes @ 0x20000E14) - Data: E9 FF FF FF  returns 0x00 (0000ms, 0330ms total)
T1350 015:684 JLINK_ReadMem (0x20000E30, 0x0004 Bytes, ...) -- Read from C cache (4 bytes @ 0x20000E30) - Data: 78 5B 00 08  returns 0x00 (0000ms, 0330ms total)
T1350 015:684 JLINK_ReadMem (0x20000E34, 0x0004 Bytes, ...) -- Read from C cache (4 bytes @ 0x20000E34) - Data: 00 00 00 01  returns 0x00 (0000ms, 0330ms total)
T1350 015:684 JLINK_ReadMem (0x20000E2C, 0x0004 Bytes, ...) -- Read from C cache (4 bytes @ 0x20000E2C) - Data: C3 0A 00 08  returns 0x00 (0000ms, 0330ms total)
T1350 015:684 JLINK_ReadMem (0xE000ED28, 0x0004 Bytes, ...) -- CPU_ReadMem(4 bytes @ 0xE000ED28) - Data: 00 00 00 00  returns 0x00 (0001ms, 0331ms total)
T1350 015:685 JLINK_ReadMem (0x20000E7C, 0x0004 Bytes, ...) -- CPU_ReadMem(64 bytes @ 0x20000E40) -- Updating C cache (64 bytes @ 0x20000E40) -- Read from C cache (4 bytes @ 0x20000E7C) - Data: 77 5B 00 08  returns 0x00 (0001ms, 0332ms total)
T1350 015:686 JLINK_ReadMem (0x20000E80, 0x0004 Bytes, ...) -- CPU_ReadMem(64 bytes @ 0x20000E80) -- Updating C cache (64 bytes @ 0x20000E80) -- Read from C cache (4 bytes @ 0x20000E80) - Data: 00 00 00 00  returns 0x00 (0002ms, 0334ms total)
T1350 015:690 JLINK_ReadMem (0x20000000, 0x0004 Bytes, ...) -- CPU_ReadMem(64 bytes @ 0x20000000) -- Updating C cache (64 bytes @ 0x20000000) -- Read from C cache (4 bytes @ 0x20000000) - Data: 00 7A 03 0A  returns 0x00 (0002ms, 0336ms total)
T1350 015:692 JLINK_ReadMem (0x20000020, 0x0008 Bytes, ...) -- Read from C cache (8 bytes @ 0x20000020) - Data: 00 00 00 00 00 00 00 00  returns 0x00 (0000ms, 0336ms total)
T1350 015:692 JLINK_ReadMem (0x20000035, 0x0001 Bytes, ...) -- Read from C cache (1 bytes @ 0x20000035) - Data: 00  returns 0x00 (0000ms, 0336ms total)
T1350 015:692 JLINK_ReadMem (0x20000034, 0x0001 Bytes, ...) -- Read from C cache (1 bytes @ 0x20000034) - Data: 00  returns 0x00 (0000ms, 0336ms total)
T1350 015:692 JLINK_ReadMem (0x2000000C, 0x0002 Bytes, ...) -- Read from C cache (2 bytes @ 0x2000000C) - Data: 00 04  returns 0x00 (0000ms, 0336ms total)
T1350 015:705 JLINK_ReadMem (0x080045AE, 0x0002 Bytes, ...) -- CPU_ReadMem(64 bytes @ 0x08004580) -- Updating C cache (64 bytes @ 0x08004580) -- Read from C cache (2 bytes @ 0x080045AE) - Data: FC F7  returns 0x00 (0001ms, 0337ms total)
T1350 015:706 JLINK_ReadMem (0x080045B0, 0x003C Bytes, ...) -- CPU_ReadMem(64 bytes @ 0x080045C0) -- Updating C cache (64 bytes @ 0x080045C0) -- Read from C cache (60 bytes @ 0x080045B0) - Data: 17 FC 07 B0 30 BD 30 B5 86 B0 09 9C 03 94 00 25 ...  returns 0x00 (0002ms, 0339ms total)
T1350 015:729 JLINK_ReadMem (0x080045A0, 0x003C Bytes, ...) -- Read from C cache (60 bytes @ 0x080045A0) - Data: 6B 46 22 46 01 A9 28 46 FC F7 A9 FC 08 B1 FC F7 ...  returns 0x00 (0000ms, 0339ms total)
T389C 019:047 JLINK_Step() -- Read from C cache (2 bytes @ 0x080045B2) -- CPU_ReadMem(4 bytes @ 0xE0001004) -- Simulated  returns 0x00 (0002ms, 0341ms total)
T389C 019:049 JLINK_ReadReg(R15 (PC))  returns 0x080045B4 (0000ms, 0341ms total)
T389C 019:049 JLINK_ReadReg(XPSR)  returns 0x2100002C (0000ms, 0341ms total)
T389C 019:049 JLINK_Step() -- Read from C cache (2 bytes @ 0x080045B4) -- Not simulated -- CPU_WriteMem(4 bytes @ 0xE0001004)  returns 0x00 (0006ms, 0347ms total)
T389C 019:055 JLINK_ReadReg(R15 (PC))  returns 0x08004410 (0000ms, 0347ms total)
T389C 019:055 JLINK_ReadReg(XPSR)  returns 0x2100002C (0000ms, 0347ms total)
T389C 019:055 JLINK_ReadReg(R0)  returns 0x00000001 (0000ms, 0347ms total)
T389C 019:055 JLINK_ReadReg(R1)  returns 0x20000DD4 (0000ms, 0347ms total)
T389C 019:055 JLINK_ReadReg(R2)  returns 0x20000805 (0000ms, 0347ms total)
T389C 019:055 JLINK_ReadReg(R3)  returns 0x82000000 (0000ms, 0347ms total)
T389C 019:055 JLINK_ReadReg(R4)  returns 0x00000003 (0000ms, 0347ms total)
T389C 019:055 JLINK_ReadReg(R5)  returns 0x20000760 (0000ms, 0347ms total)
T389C 019:055 JLINK_ReadReg(R6)  returns 0x00000000 (0000ms, 0347ms total)
T389C 019:055 JLINK_ReadReg(R7)  returns 0x00000000 (0000ms, 0347ms total)
T389C 019:055 JLINK_ReadReg(R8)  returns 0x00000000 (0000ms, 0347ms total)
T389C 019:055 JLINK_ReadReg(R9)  returns 0x00000000 (0000ms, 0347ms total)
T389C 019:055 JLINK_ReadReg(R10)  returns 0x00000000 (0000ms, 0347ms total)
T389C 019:055 JLINK_ReadReg(R11)  returns 0x00000000 (0000ms, 0347ms total)
T389C 019:055 JLINK_ReadReg(R12)  returns 0x11800000 (0000ms, 0347ms total)
T389C 019:055 JLINK_ReadReg(R13 (SP))  returns 0x20000DF8 (0000ms, 0347ms total)
T389C 019:055 JLINK_ReadReg(R14)  returns 0x080045B3 (0000ms, 0347ms total)
T389C 019:055 JLINK_ReadReg(R15 (PC))  returns 0x08004410 (0000ms, 0347ms total)
T389C 019:055 JLINK_ReadReg(XPSR)  returns 0x2100002C (0000ms, 0347ms total)
T389C 019:055 JLINK_ReadReg(MSP)  returns 0x20000DF8 (0000ms, 0347ms total)
T389C 019:055 JLINK_ReadReg(PSP)  returns 0x00000000 (0000ms, 0347ms total)
T389C 019:055 JLINK_ReadReg(CFBP)  returns 0x04000000 (0000ms, 0347ms total)
T389C 019:055 JLINK_ReadReg(FPSCR)  returns 0x60000000 (0006ms, 0353ms total)
T389C 019:061 JLINK_ReadReg(FPS0)  returns 0x00000000 (0000ms, 0353ms total)
T389C 019:061 JLINK_ReadReg(FPS1)  returns 0x00000000 (0000ms, 0353ms total)
T389C 019:061 JLINK_ReadReg(FPS2)  returns 0x00000000 (0000ms, 0353ms total)
T389C 019:061 JLINK_ReadReg(FPS3)  returns 0x00000000 (0000ms, 0353ms total)
T389C 019:061 JLINK_ReadReg(FPS4)  returns 0x00000000 (0000ms, 0353ms total)
T389C 019:061 JLINK_ReadReg(FPS5)  returns 0x00000000 (0000ms, 0353ms total)
T389C 019:061 JLINK_ReadReg(FPS6)  returns 0x00000000 (0000ms, 0353ms total)
T389C 019:061 JLINK_ReadReg(FPS7)  returns 0x00000000 (0000ms, 0353ms total)
T389C 019:061 JLINK_ReadReg(FPS8)  returns 0x00000000 (0000ms, 0353ms total)
T389C 019:061 JLINK_ReadReg(FPS9)  returns 0x00000000 (0000ms, 0353ms total)
T389C 019:061 JLINK_ReadReg(FPS10)  returns 0x00000000 (0000ms, 0353ms total)
T389C 019:061 JLINK_ReadReg(FPS11)  returns 0x00000000 (0000ms, 0353ms total)
T389C 019:061 JLINK_ReadReg(FPS12)  returns 0x00000000 (0000ms, 0353ms total)
T389C 019:061 JLINK_ReadReg(FPS13)  returns 0x00000000 (0000ms, 0353ms total)
T389C 019:061 JLINK_ReadReg(FPS14)  returns 0x00000000 (0000ms, 0353ms total)
T389C 019:061 JLINK_ReadReg(FPS15)  returns 0x00000000 (0000ms, 0353ms total)
T389C 019:061 JLINK_ReadReg(FPS16)  returns 0x00000000 (0000ms, 0353ms total)
T389C 019:061 JLINK_ReadReg(FPS17)  returns 0x00000000 (0000ms, 0353ms total)
T389C 019:061 JLINK_ReadReg(FPS18)  returns 0x00000000 (0000ms, 0353ms total)
T389C 019:061 JLINK_ReadReg(FPS19)  returns 0x00000000 (0000ms, 0353ms total)
T389C 019:061 JLINK_ReadReg(FPS20)  returns 0x00000000 (0000ms, 0353ms total)
T389C 019:061 JLINK_ReadReg(FPS31)  returns 0x00000000 (0000ms, 0353ms total)
T389C 019:061 JLINK_ReadReg(FPS7)  returns 0x00000000 (0000ms, 0353ms total)
T389C 019:061 JLINK_ReadReg(FPS8)  returns 0x00000000 (0000ms, 0353ms total)
T389C 019:061 JLINK_ReadReg(FPS9)  returns 0x00000000 (0000ms, 0353ms total)
T389C 019:061 JLINK_ReadReg(FPS10)  returns 0x00000000 (0000ms, 0353ms total)
T389C 019:061 JLINK_ReadReg(FPS11)  returns 0x00000000 (0000ms, 0353ms total)
T389C 019:061 JLINK_ReadReg(FPS12)  returns 0x00000000 (0000ms, 0353ms total)
T389C 019:061 JLINK_ReadReg(FPS13)  returns 0x00000000 (0000ms, 0353ms total)
T389C 019:061 JLINK_ReadReg(FPS14)  returns 0x00000000 (0000ms, 0353ms total)
T389C 019:061 JLINK_ReadReg(FPS15)  returns 0x00000000 (0000ms, 0353ms total)
T389C 019:061 JLINK_ReadReg(FPS16)  returns 0x00000000 (0000ms, 0353ms total)
T1350 019:061 JLINK_ReadMem (0x20000E04, 0x0004 Bytes, ...) -- CPU_ReadMem(64 bytes @ 0x20000E00) -- Updating C cache (64 bytes @ 0x20000E00) -- Read from C cache (4 bytes @ 0x20000E04) - Data: 17 0C 00 08  returns 0x00 (0002ms, 0355ms total)
T1350 019:063 JLINK_ReadMem (0x20000DF8, 0x0004 Bytes, ...) -- CPU_ReadMem(64 bytes @ 0x20000DC0) -- Updating C cache (64 bytes @ 0x20000DC0) -- Read from C cache (4 bytes @ 0x20000DF8) - Data: 98 5D 00 08  returns 0x00 (0002ms, 0357ms total)
T1350 019:065 JLINK_ReadMem (0x20000DFC, 0x0004 Bytes, ...) -- Read from C cache (4 bytes @ 0x20000DFC) - Data: 98 5D 00 08  returns 0x00 (0000ms, 0357ms total)
T1350 019:065 JLINK_ReadMem (0x20000E00, 0x0004 Bytes, ...) -- Read from C cache (4 bytes @ 0x20000E00) - Data: 00 00 00 00  returns 0x00 (0000ms, 0357ms total)
T1350 019:065 JLINK_ReadMem (0x20000E0C, 0x0004 Bytes, ...) -- Read from C cache (4 bytes @ 0x20000E0C) - Data: 31 47 00 08  returns 0x00 (0000ms, 0357ms total)
T1350 019:065 JLINK_ReadMem (0x20000E08, 0x0004 Bytes, ...) -- Read from C cache (4 bytes @ 0x20000E08) - Data: 98 5D 00 08  returns 0x00 (0000ms, 0357ms total)
T1350 019:065 JLINK_ReadMem (0x20000E14, 0x0004 Bytes, ...) -- Read from C cache (4 bytes @ 0x20000E14) - Data: E9 FF FF FF  returns 0x00 (0000ms, 0357ms total)
T1350 019:065 JLINK_ReadMem (0x20000E30, 0x0004 Bytes, ...) -- Read from C cache (4 bytes @ 0x20000E30) - Data: 78 5B 00 08  returns 0x00 (0000ms, 0357ms total)
T1350 019:065 JLINK_ReadMem (0x20000E34, 0x0004 Bytes, ...) -- Read from C cache (4 bytes @ 0x20000E34) - Data: 00 00 00 01  returns 0x00 (0000ms, 0357ms total)
T1350 019:065 JLINK_ReadMem (0x20000E2C, 0x0004 Bytes, ...) -- Read from C cache (4 bytes @ 0x20000E2C) - Data: C3 0A 00 08  returns 0x00 (0000ms, 0357ms total)
T1350 019:065 JLINK_ReadMem (0xE000ED28, 0x0004 Bytes, ...) -- CPU_ReadMem(4 bytes @ 0xE000ED28) - Data: 00 00 00 00  returns 0x00 (0001ms, 0358ms total)
T1350 019:066 JLINK_ReadMem (0x20000E7C, 0x0004 Bytes, ...) -- CPU_ReadMem(64 bytes @ 0x20000E40) -- Updating C cache (64 bytes @ 0x20000E40) -- Read from C cache (4 bytes @ 0x20000E7C) - Data: 77 5B 00 08  returns 0x00 (0001ms, 0359ms total)
T1350 019:067 JLINK_ReadMem (0x20000E80, 0x0004 Bytes, ...) -- CPU_ReadMem(64 bytes @ 0x20000E80) -- Updating C cache (64 bytes @ 0x20000E80) -- Read from C cache (4 bytes @ 0x20000E80) - Data: 00 00 00 00  returns 0x00 (0002ms, 0361ms total)
T1350 019:071 JLINK_ReadMem (0x20000000, 0x0004 Bytes, ...) -- CPU_ReadMem(64 bytes @ 0x20000000) -- Updating C cache (64 bytes @ 0x20000000) -- Read from C cache (4 bytes @ 0x20000000) - Data: 00 7A 03 0A  returns 0x00 (0002ms, 0363ms total)
T1350 019:073 JLINK_ReadMem (0x20000020, 0x0008 Bytes, ...) -- Read from C cache (8 bytes @ 0x20000020) - Data: 00 00 00 00 00 00 00 00  returns 0x00 (0000ms, 0363ms total)
T1350 019:073 JLINK_ReadMem (0x20000035, 0x0001 Bytes, ...) -- Read from C cache (1 bytes @ 0x20000035) - Data: 00  returns 0x00 (0000ms, 0363ms total)
T1350 019:073 JLINK_ReadMem (0x20000034, 0x0001 Bytes, ...) -- Read from C cache (1 bytes @ 0x20000034) - Data: 00  returns 0x00 (0000ms, 0363ms total)
T1350 019:073 JLINK_ReadMem (0x2000000C, 0x0002 Bytes, ...) -- Read from C cache (2 bytes @ 0x2000000C) - Data: 00 04  returns 0x00 (0000ms, 0363ms total)
T1350 019:076 JLINK_ReadMem (0x08004406, 0x0002 Bytes, ...) -- CPU_ReadMem(64 bytes @ 0x08004400) -- Updating C cache (64 bytes @ 0x08004400) -- Read from C cache (2 bytes @ 0x08004406) - Data: 05 F1  returns 0x00 (0002ms, 0365ms total)
T1350 019:078 JLINK_ReadMem (0x08004408, 0x003C Bytes, ...) -- CPU_ReadMem(64 bytes @ 0x08004440) -- Updating C cache (64 bytes @ 0x08004440) -- Read from C cache (60 bytes @ 0x08004408) - Data: A5 01 0B 48 00 F0 B9 F8 03 2C 05 D1 07 49 D1 F8 ...  returns 0x00 (0001ms, 0366ms total)
T1350 023:322 JLINK_ReadMem (0x08000AEC, 0x003C Bytes, ...) -- CPU_ReadMem(128 bytes @ 0x08000AC0) -- Updating C cache (128 bytes @ 0x08000AC0) -- Read from C cache (60 bytes @ 0x08000AEC) - Data: 07 4B 08 4A 00 21 05 48 00 F0 41 FB 05 49 09 88 ...  returns 0x00 (0003ms, 0369ms total)
T389C 028:054 JLINK_SetBPEx(Addr = 0x08000DE0, Type = 0xFFFFFFF2)  returns 0x00000004 (0000ms, 0369ms total)
T389C 028:054 JLINK_SetBPEx(Addr = 0x08000AEC, Type = 0xFFFFFFF2)  returns 0x00000005 (0001ms, 0370ms total)
T389C 028:055 JLINK_Go() -- CPU_WriteMem(4 bytes @ 0xE0002000) -- CPU_WriteMem(4 bytes @ 0xE0002000) -- CPU_ReadMem(4 bytes @ 0xE0001000) -- CPU_WriteMem(4 bytes @ 0xE0002008) -- CPU_WriteMem(4 bytes @ 0xE000200C) (0005ms, 0375ms total)
T389C 028:161 JLINK_IsHalted()  returns TRUE (0004ms, 0379ms total)
T389C 028:165 JLINK_Halt()  returns 0x00 (0000ms, 0375ms total)
T389C 028:165 JLINK_IsHalted()  returns TRUE (0000ms, 0375ms total)
T389C 028:165 JLINK_IsHalted()  returns TRUE (0000ms, 0375ms total)
T389C 028:165 JLINK_IsHalted()  returns TRUE (0000ms, 0375ms total)
T389C 028:165 JLINK_ReadReg(R15 (PC))  returns 0x08000DE0 (0000ms, 0375ms total)
T389C 028:165 JLINK_ReadReg(XPSR)  returns 0x2100002C (0000ms, 0375ms total)
T389C 028:165 JLINK_ClrBPEx(BPHandle = 0x00000004)  returns 0x00 (0000ms, 0375ms total)
T389C 028:165 JLINK_ClrBPEx(BPHandle = 0x00000005)  returns 0x00 (0000ms, 0375ms total)
T389C 028:165 JLINK_ReadMemU32(0xE000ED30, 0x0001 Items, ...) -- CPU_ReadMem(4 bytes @ 0xE000ED30) - Data: 03 00 00 00  returns 0x01 (0001ms, 0376ms total)
T389C 028:166 JLINK_ReadMemU32(0xE0001028, 0x0001 Items, ...) -- CPU_ReadMem(4 bytes @ 0xE0001028) - Data: 00 00 00 00  returns 0x01 (0002ms, 0378ms total)
T389C 028:168 JLINK_ReadMemU32(0xE0001038, 0x0001 Items, ...) -- CPU_ReadMem(4 bytes @ 0xE0001038) - Data: 00 02 00 00  returns 0x01 (0000ms, 0378ms total)
T389C 028:168 JLINK_ReadMemU32(0xE0001048, 0x0001 Items, ...) -- CPU_ReadMem(4 bytes @ 0xE0001048) - Data: 00 00 00 00  returns 0x01 (0001ms, 0379ms total)
T389C 028:169 JLINK_ReadMemU32(0xE0001058, 0x0001 Items, ...) -- CPU_ReadMem(4 bytes @ 0xE0001058) - Data: 00 00 00 00  returns 0x01 (0002ms, 0381ms total)
T389C 028:171 JLINK_ReadReg(R0)  returns 0x00000001 (0000ms, 0381ms total)
T389C 028:171 JLINK_ReadReg(R1)  returns 0x20000DD4 (0000ms, 0381ms total)
T389C 028:171 JLINK_ReadReg(R2)  returns 0x20000805 (0000ms, 0381ms total)
T389C 028:171 JLINK_ReadReg(R3)  returns 0x82000000 (0000ms, 0381ms total)
T389C 028:171 JLINK_ReadReg(R4)  returns 0x20000805 (0000ms, 0381ms total)
T389C 028:171 JLINK_ReadReg(R5)  returns 0x20000088 (0000ms, 0381ms total)
T389C 028:171 JLINK_ReadReg(R6)  returns 0x00000000 (0000ms, 0381ms total)
T389C 028:171 JLINK_ReadReg(R7)  returns 0x00000000 (0000ms, 0381ms total)
T389C 028:171 JLINK_ReadReg(R8)  returns 0x00000000 (0000ms, 0381ms total)
T389C 028:171 JLINK_ReadReg(R9)  returns 0x00000000 (0000ms, 0381ms total)
T389C 028:171 JLINK_ReadReg(R10)  returns 0x00000000 (0000ms, 0381ms total)
T389C 028:171 JLINK_ReadReg(R11)  returns 0x00000000 (0001ms, 0382ms total)
T389C 028:172 JLINK_ReadReg(R12)  returns 0x11800000 (0000ms, 0382ms total)
T389C 028:172 JLINK_ReadReg(R13 (SP))  returns 0x20000DD0 (0000ms, 0382ms total)
T389C 028:172 JLINK_ReadReg(R14)  returns 0x080045B3 (0000ms, 0382ms total)
T389C 028:172 JLINK_ReadReg(R15 (PC))  returns 0x08000DE0 (0000ms, 0382ms total)
T389C 028:172 JLINK_ReadReg(XPSR)  returns 0x2100002C (0000ms, 0382ms total)
T389C 028:172 JLINK_ReadReg(MSP)  returns 0x20000DD0 (0000ms, 0382ms total)
T389C 028:172 JLINK_ReadReg(PSP)  returns 0x00000000 (0000ms, 0382ms total)
